APB（Advanced Peripheral Bus）是AMBA（Advanced Microcontroller Bus Architecture）总线协议的一部分，主要用于连接低带宽的外设。APB协议的设计简单，适合低功耗和低复杂度的应用场景。以下是APB协议的信号和时序的详细介绍：

---

### **APB信号**
APB协议的信号分为主设备（Master）和从设备（Slave）之间的交互信号，主要包括以下几类：

1. **地址信号**
   - `PADDR`：地址信号，由主设备提供，用于选择从设备的寄存器地址。

2. **控制信号**
   - `PSEL`：从设备选择信号，主设备通过该信号选择目标从设备。
   - `PENABLE`：使能信号，表示当前传输是否处于有效阶段。
   - `PWRITE`：写使能信号，表示当前操作是写操作（高电平）还是读操作（低电平）。

3. **数据信号**
   - `PWDATA`：写数据信号，主设备通过该信号向从设备发送数据。
   - `PRDATA`：读数据信号，从设备通过该信号向主设备返回数据。

4. **响应信号**
   - `PREADY`：准备信号，从设备通过该信号通知主设备当前传输是否完成。
   - `PSLVERR`：错误信号，从设备通过该信号通知主设备是否发生错误（可选）。

---

### **APB时序**
APB协议的时序分为三个阶段：**IDLE阶段**、**SETUP阶段**和**ACCESS阶段**。

1. **IDLE阶段**
   - 在空闲状态下，`PSEL`信号为低电平，表示没有从设备被选中。
   - `PENABLE`信号为低电平，表示总线未处于活动状态。

2. **SETUP阶段**
   - 主设备将`PSEL`信号置为高电平，选择目标从设备。
   - 主设备设置`PADDR`、`PWRITE`和`PWDATA`信号（如果是写操作）。
   - `PENABLE`信号保持低电平。

3. **ACCESS阶段**
   - 主设备将`PENABLE`信号置为高电平，表示进入访问阶段。
   - 如果是写操作，从设备接收`PWDATA`数据。
   - 如果是读操作，从设备将数据放置在`PRDATA`信号上。
   - 从设备通过`PREADY`信号通知主设备当前传输是否完成。
   - 如果`PREADY`为低电平，主设备将保持`PENABLE`为高电平，直到`PREADY`变为高电平。

4. **完成传输**
   - 当`PREADY`为高电平时，传输完成。
   - 主设备将`PENABLE`信号置为低电平，返回到IDLE阶段。

---

以下是APB协议时序的Markdown表格描述：

| 时钟周期 | PSEL | PADDR | PWRITE | PWDATA | PENABLE | PREADY | PRDATA | 描述             |
| ---- | ---- | ----- | ------ | ------ | ------- | ------ | ------ | -------------- |
| 1    | 0    | 无效    | 无效     | 无效     | 0       | 无效     | 无效     | IDLE阶段，未选择从设备  |
| 2    | 1    | 设置地址  | 设置     | 设置写数据  | 0       | 无效     | 无效     | SETUP阶段，设置信号   |
| 3    | 1    | 保持    | 保持     | 保持     | 1       | 0      | 无效     | ACCESS阶段，等待从设备 |
| 4    | 1    | 保持    | 保持     | 保持     | 1       | 1      | 返回读数据  | ACCESS阶段，传输完成  |
| 5    | 0    | 无效    | 无效     | 无效     | 0       | 无效     | 无效     | 返回IDLE阶段       |

### 表格说明
1. **时钟周期**：表示每个时钟周期的状态。
2. **PSEL**：从设备选择信号，`1`表示选择从设备，`0`表示未选择。
3. **PADDR**：地址信号，`设置地址`表示主设备提供有效地址。
4. **PWRITE**：写使能信号，`设置`表示当前操作是写操作。
5. **PWDATA**：写数据信号，`设置写数据`表示主设备提供有效数据。
6. **PENABLE**：使能信号，`1`表示进入访问阶段。
7. **PREADY**：准备信号，`1`表示从设备准备完成。
8. **PRDATA**：读数据信号，`返回读数据`表示从设备返回有效数据。
9. **描述**：对每个阶段的状态进行文字说明。


---

### **APB协议的特点**
1. **简单性**：APB协议设计简单，适合低复杂度的外设。
2. **低功耗**：APB在IDLE阶段无活动信号，降低了功耗。
3. **单向传输**：APB协议在一个时钟周期内只支持单向数据传输（读或写）。